  can0  6B1   [8]  00 06 00 03 19 19 00 F4
  can0  6B0   [8]  00 00 00 88 1A 90 48 32
  can0  6B2   [8]  02 85 34 2F 2C 85 3F 94
  can0  6B1   [8]  00 06 00 03 19 19 00 F4
  can0  6B2   [8]  03 85 2F 2F 2C 85 3A 8B
  can0  6B1   [8]  00 06 00 03 19 19 00 F4
  can0  6B2   [8]  00 85 2D 2F 2C 85 2D 79
  can0  6B1   [8]  00 06 00 03 19 19 00 F4
  can0  6B2   [8]  01 85 35 2F 2C 85 34 89
  can0  6B1   [8]  00 06 00 03 19 19 00 F4
  can0  6B2   [8]  02 85 34 2F 2C 85 33 88
  can0  6B0   [8]  00 00 00 88 1A 90 48 32
  can0  6B1   [8]  00 06 00 03 19 19 00 F4
  can0  6B2   [8]  03 85 2F 2F 2C 85 2F 80
  can0  6B1   [8]  00 06 00 03 19 19 00 F4
  can0  6B2   [8]  00 85 2B 2F 2C 85 2D 77
  can0  6B1   [8]  00 06 00 03 19 19 00 F4
  can0  6B2   [8]  01 85 34 2F 2C 85 34 88
  can0  6B1   [8]  00 06 00 03 19 19 00 F4
  can0  6B2   [8]  02 85 34 2F 2C 85 34 89
  can0  6B1   [8]  00 06 00 03 19 19 00 F4
  can0  6B2   [8]  03 85 2F 2F 2C 85 2F 80
  can0  6B0   [8]  00 00 00 88 1A 90 48 32
  can0  6B1   [8]  00 06 00 03 19 19 00 F4
  can0  6B2   [8]  00 85 2D 2F 2C 85 2C 78
  can0  6B1   [8]  00 06 00 03 19 19 00 F4
  can0  6B2   [8]  01 85 34 2F 2C 85 34 88
  can0  6B1   [8]  00 06 00 03 19 19 00 F4
  can0  6B2   [8]  02 85 35 2F 2C 85 34 8A
  can0  6B1   [8]  00 06 00 03 19 19 00 F4
  can0  6B2   [8]  03 85 2F 2F 2C 85 2F 80
  can0  6B1   [8]  00 06 00 03 19 19 00 F4
  can0  6B2   [8]  00 85 2C 2F 2C 85 2C 77
  can0  6B0   [8]  00 00 00 88 1A 90 48 32
  can0  6B1   [8]  00 06 00 03 19 19 00 F4
  can0  6B2   [8]  01 85 34 2F 2C 85 34 88
  can0  6B1   [8]  00 06 00 03 19 19 00 F4
  can0  6B2   [8]  02 85 34 2F 2C 85 33 88
  can0  6B2   [8]  03 85 2E 2F 2C 85 2E 7E
  can0  6B1   [8]  00 06 00 03 19 19 00 F4
  can0  6B2   [8]  00 85 2C 2F 2C 85 2C 77
  can0  6B1   [8]  00 06 00 03 19 19 00 F4
  can0  6B2   [8]  01 85 34 2F 2C 85 34 88
  can0  6B1   [8]  00 06 00 03 19 19 00 F4
  can0  6B0   [8]  00 00 00 88 1A 90 48 32
  can0  6B2   [8]  02 85 35 2F 2C 85 33 89
  can0  6B1   [8]  00 06 00 03 19 19 00 F4
  can0  6B2   [8]  03 85 2F 2F 2C 85 2E 7F
  can0  6B1   [8]  00 06 00 03 19 19 00 F4
  can0  6B2   [8]  00 85 2C 2F 2C 85 2D 78
  can0  6B1   [8]  00 06 00 03 19 19 00 F4
  can0  6B2   [8]  01 85 34 2F 2C 85 34 88
  can0  6B1   [8]  00 06 00 03 19 19 00 F4
  can0  6B2   [8]  02 85 35 2F 2C 85 34 8A
  can0  6B1   [8]  00 06 00 03 19 19 00 F4
  can0  6B0   [8]  00 00 00 88 1A 90 48 32
  can0  6B1   [8]  00 06 00 03 19 19 00 F4
  can0  6B2   [8]  00 85 2D 2F 2C 85 2C 78
  can0  6B1   [8]  00 06 00 03 19 19 00 F4
  can0  6B2   [8]  01 85 35 2F 2C 85 34 89
  can0  6B1   [8]  00 06 00 03 19 19 00 F4
  can0  6B2   [8]  02 85 34 2F 2C 85 34 89
  can0  6B1   [8]  00 06 00 03 19 19 00 F4
  can0  6B2   [8]  03 85 2F 2F 2C 85 2F 80
  can0  6B1   [8]  00 06 00 03 19 19 00 F4
  can0  6B0   [8]  00 00 00 88 1A 90 48 32
  can0  6B2   [8]  00 85 2D 2F 2C 85 2D 79
  can0  6B1   [8]  00 06 00 03 19 19 00 F4
  can0  6B2   [8]  01 85 34 2F 2C 85 34 88
  can0  6B1   [8]  00 06 00 03 19 19 00 F4
  can0  6B2   [8]  02 85 34 2F 2C 85 34 89
  can0  6B1   [8]  00 06 00 03 19 19 00 F4
  can0  6B2   [8]  03 85 2F 2F 2C 85 2F 80
  can0  6B1   [8]  00 06 00 03 19 19 00 F4
  can0  6B2   [8]  00 85 2D 2F 2C 85 2D 79
  can0  6B1   [8]  00 06 00 03 19 19 00 F4
  can0  6B0   [8]  00 00 00 88 1A 90 48 32
  can0  6B2   [8]  01 85 35 2F 2C 85 34 89
  can0  6B1   [8]  00 06 00 03 19 19 00 F4
  can0  6B2   [8]  02 85 34 2F 2C 85 34 89
  can0  6B1   [8]  00 06 00 03 19 19 00 F4
  can0  6B2   [8]  03 85 2F 2F 2C 85 2E 7F
  can0  6B1   [8]  00 06 00 03 19 19 00 F4
  can0  6B2   [8]  00 85 2D 2F 2C 85 2D 79
  can0  6B1   [8]  00 06 00 03 19 19 00 F4
  can0  6B2   [8]  01 85 36 2F 2C 85 34 8A
  can0  6B0   [8]  00 00 00 88 1A 90 48 32
  can0  6B1   [8]  00 06 00 03 19 19 00 F4
  can0  6B2   [8]  02 85 35 2F 2C 85 34 8A
  can0  6B1   [8]  00 06 00 03 19 19 00 F4
  can0  6B2   [8]  03 85 2F 2F 2C 85 2E 7F
  can0  6B1   [8]  00 06 00 03 19 19 00 F4
  can0  6B2   [8]  00 85 2C 2F 2C 85 2D 78
  can0  6B2   [8]  01 85 33 2F 2C 85 34 87
  can0  6B1   [8]  00 06 00 03 19 19 00 F4
  can0  6B2   [8]  02 85 35 2F 2C 85 35 8B
  can0  6B1   [8]  00 06 00 03 19 19 00 F4
  can0  6B0   [8]  00 00 00 88 1A 90 48 32
  can0  6B2   [8]  03 85 2F 2F 2C 85 2E 7F
  can0  6B1   [8]  00 06 00 03 19 19 00 F4
  can0  6B2   [8]  00 85 2D 2F 2C 85 2C 78
  can0  6B1   [8]  00 06 00 03 19 19 00 F4
  can0  6B2   [8]  01 85 33 2F 2C 85 34 87
  can0  6B1   [8]  00 06 00 03 19 19 00 F4
  can0  6B2   [8]  02 85 35 2F 2C 85 34 8A
  can0  6B1   [8]  00 06 00 03 19 19 00 F4
  can0  6B2   [8]  03 85 2F 2F 2C 85 2F 80
  can0  6B1   [8]  00 06 00 03 19 19 00 F4
  can0  6B0   [8]  00 00 00 88 1A 90 48 32
  can0  6B2   [8]  00 85 2C 2F 2C 85 2C 77
  can0  6B1   [8]  00 06 00 03 19 19 00 F4
  can0  6B2   [8]  01 85 34 2F 2C 85 33 87
  can0  6B1   [8]  00 06 00 03 19 19 00 F4
  can0  6B2   [8]  02 85 34 2F 2C 85 40 95
  can0  6B1   [8]  00 06 00 03 19 19 00 F4
  can0  6B2   [8]  03 85 30 2F 2C 85 3B 8D
  can0  6B1   [8]  00 06 00 03 19 19 00 F4
  can0  6B2   [8]  00 85 2C 2F 2C 85 39 84
  can0  6B1   [8]  00 06 00 03 19 19 00 F4
  can0  6B0   [8]  00 00 00 88 1A 90 48 32
  can0  6B2   [8]  01 85 34 2F 2C 85 41 95
  can0  6B1   [8]  00 06 00 03 19 19 00 F4
  can0  6B2   [8]  02 85 34 2F 2C 85 40 95
  can0  6B1   [8]  00 06 00 03 19 19 00 F4
  can0  6B2   [8]  03 85 2F 2F 2C 85 3A 8B
  can0  6B1   [8]  00 06 00 03 19 19 00 F4
  can0  6B2   [8]  00 85 2D 2F 2C 85 38 84
  can0  6B1   [8]  00 06 00 03 19 19 00 F4
  can0  6B2   [8]  01 85 33 2F 2C 85 34 87
  can0  6B1   [8]  00 06 00 03 19 19 00 F4
  can0  6B0   [8]  00 00 00 88 1A 90 48 32
  can0  6B2   [8]  02 85 34 2F 2C 85 40 95
  can0  6B1   [8]  00 06 00 03 19 19 00 F4
  can0  6B2   [8]  03 85 2F 2F 2C 85 3B 8C
  can0  6B1   [8]  00 06 00 03 19 19 00 F4
  can0  6B2   [8]  00 85 2D 2F 2C 85 39 85
  can0  6B1   [8]  00 06 00 03 19 19 00 F4
  can0  6B2   [8]  01 85 35 2F 2C 85 40 95
  can0  6B1   [8]  00 06 00 03 19 19 00 F4
  can0  6B2   [8]  02 85 33 2F 2C 85 33 87
  can0  6B1   [8]  00 06 00 03 19 19 00 F4
  can0  6B2   [8]  03 85 2F 2F 2C 85 2F 80
  can0  6B0   [8]  00 00 00 88 1A 90 48 32
  can0  6B1   [8]  00 06 00 03 19 19 00 F4
  can0  6B2   [8]  00 85 2D 2F 2C 85 2D 79
  can0  6B1   [8]  00 06 00 03 19 19 00 F4
  can0  6B2   [8]  01 85 34 2F 2C 85 34 88
  can0  6B1   [8]  00 06 00 03 19 19 00 F4
  can0  6B2   [8]  02 85 34 2F 2C 85 33 88
  can0  6B2   [8]  03 85 2F 2F 2C 85 2F 80
  can0  6B1   [8]  00 06 00 03 19 19 00 F4
  can0  6B2   [8]  00 85 2D 2F 2C 85 2D 79
  can0  6B0   [8]  00 00 00 88 1A 90 48 32
  can0  6B1   [8]  00 06 00 03 19 19 00 F4
  can0  6B2   [8]  01 85 34 2F 2C 85 34 88
  can0  6B1   [8]  00 06 00 03 19 19 00 F4
  can0  6B2   [8]  02 85 34 2F 2C 85 34 89
  can0  6B1   [8]  00 06 00 03 19 19 00 F4
  can0  6B2   [8]  03 85 2F 2F 2C 85 2F 80
  can0  6B1   [8]  00 06 00 03 19 19 00 F4
  can0  6B2   [8]  00 85 2D 2F 2C 85 2D 79
  can0  6B1   [8]  00 06 00 03 19 19 00 F4
  can0  6B2   [8]  01 85 34 2F 2C 85 34 88
  can0  6B0   [8]  00 00 00 88 1A 90 48 32
  can0  6B1   [8]  00 06 00 03 19 19 00 F4
  can0  6B2   [8]  02 85 34 2F 2C 85 40 95
  can0  6B1   [8]  00 06 00 03 19 19 00 F4
  can0  6B2   [8]  03 85 30 2F 2C 85 2F 81
  can0  6B1   [8]  00 06 00 03 19 19 00 F4
  can0  6B2   [8]  00 85 2C 2F 2C 85 2D 78
  can0  6B1   [8]  00 06 00 03 19 19 00 F4
  can0  6B2   [8]  01 85 34 2F 2C 85 34 88
  can0  6B1   [8]  00 06 00 03 19 19 00 F4
  can0  6B2   [8]  02 85 34 2F 2C 85 40 95
  can0  6B0   [8]  00 00 00 88 1A 90 48 32
  can0  6B1   [8]  00 06 00 03 19 19 00 F4
  can0  6B2   [8]  03 85 2F 2F 2C 85 3A 8B
  can0  6B1   [8]  00 06 00 03 19 19 00 F4
  can0  6B2   [8]  00 85 2C 2F 2C 85 38 83
  can0  6B1   [8]  00 06 00 03 19 19 00 F4
  can0  6B2   [8]  01 85 34 2F 2C 85 33 87
  can0  6B1   [8]  00 06 00 03 19 19 00 F4
  can0  6B2   [8]  02 85 34 2F 2C 85 34 89
  can0  6B1   [8]  00 06 00 03 19 19 00 F4
  can0  6B2   [8]  03 85 2E 2F 2C 85 2F 7F
  can0  6B0   [8]  00 00 00 88 1A 90 48 32
  can0  6B1   [8]  00 06 00 03 19 19 00 F4
  can0  6B2   [8]  00 85 2C 2F 2C 85 38 83
  can0  6B1   [8]  00 06 00 03 19 19 00 F4
  can0  6B2   [8]  01 85 34 2F 2C 85 40 94
  can0  6B1   [8]  00 06 00 03 19 19 00 F4
  can0  6B2   [8]  02 85 34 2F 2C 85 40 95
  can0  6B1   [8]  00 06 00 03 19 19 00 F4
  can0  6B2   [8]  03 85 2E 2F 2C 85 3A 8A
  can0  6B1   [8]  00 06 00 03 19 19 00 F4
  can0  6B2   [8]  00 85 2D 2F 2C 85 2D 79
  can0  6B0   [8]  00 00 00 88 1A 90 48 32
  can0  6B1   [8]  00 06 00 03 19 19 00 F4
  can0  6B2   [8]  01 85 34 2F 2C 85 34 88
  can0  6B1   [8]  00 06 00 03 19 19 00 F4
  can0  6B2   [8]  02 85 35 2F 2C 85 34 8A
  can0  6B1   [8]  00 06 00 03 19 19 00 F4
  can0  6B2   [8]  03 85 2F 2F 2C 85 2F 80
  can0  6B1   [8]  00 06 00 03 19 19 00 F4
  can0  6B2   [8]  00 85 2D 2F 2C 85 2C 78
  can0  6B2   [8]  01 85 35 2F 2C 85 41 96
  can0  6B1   [8]  00 06 00 03 19 19 00 F4
  can0  6B0   [8]  00 00 00 88 1A 90 48 32
  can0  6B2   [8]  02 85 35 2F 2C 85 3F 95
  can0  6B1   [8]  00 06 00 03 19 19 00 F4
  can0  6B2   [8]  03 85 2F 2F 2C 85 3A 8B
  can0  6B1   [8]  00 06 00 03 19 19 00 F4
  can0  6B2   [8]  00 85 2C 2F 2C 85 2C 77
  can0  6B1   [8]  00 06 00 03 19 19 00 F4
  can0  6B2   [8]  01 85 34 2F 2C 85 34 88
  can0  6B1   [8]  00 06 00 03 19 19 00 F4
  can0  6B2   [8]  02 85 34 2F 2C 85 34 89
  can0  6B1   [8]  00 06 00 03 19 19 00 F4
  can0  6B0   [8]  00 00 00 88 1A 90 48 32
  can0  6B2   [8]  03 85 2E 2F 2C 85 2E 7E
  can0  6B1   [8]  00 06 00 03 19 19 00 F4
  can0  6B2   [8]  00 85 2D 2F 2C 85 2C 78
  can0  6B1   [8]  00 06 00 03 19 19 00 F4
  can0  6B2   [8]  01 85 33 2F 2C 85 34 87
  can0  6B1   [8]  00 06 00 03 19 19 00 F4
  can0  6B2   [8]  02 85 34 2F 2C 85 33 88
  can0  6B1   [8]  00 06 00 03 19 19 00 F4
  can0  6B2   [8]  03 85 2F 2F 2C 85 2E 7F
  can0  6B0   [8]  00 00 00 88 1A 90 48 32
  can0  6B1   [8]  00 06 00 03 19 19 00 F4
  can0  6B2   [8]  00 85 2E 2F 2C 85 2D 7A
  can0  6B1   [8]  00 06 00 03 19 19 00 F4
  can0  6B2   [8]  01 85 34 2F 2C 85 34 88
  can0  6B1   [8]  00 06 00 03 19 19 00 F4
  can0  6B2   [8]  02 85 33 2F 2C 85 33 87
  can0  6B1   [8]  00 06 00 03 19 19 00 F4
  can0  6B2   [8]  03 85 2F 2F 2C 85 2F 80
  can0  6B1   [8]  00 06 00 03 19 19 00 F4
  can0  6B2   [8]  00 85 2E 2F 2C 85 2D 7A
  can0  6B0   [8]  00 00 00 88 1A 90 48 32
  can0  6B1   [8]  00 06 00 03 19 19 00 F4
  can0  6B2   [8]  01 85 34 2F 2C 85 40 94
  can0  6B1   [8]  00 06 00 03 19 19 00 F4
  can0  6B2   [8]  02 85 34 2F 2C 85 40 95
  can0  6B1   [8]  00 06 00 03 19 19 00 F4
  can0  6B2   [8]  03 85 2E 2F 2C 85 3A 8A
  can0  6B1   [8]  00 06 00 03 19 19 00 F4
  can0  6B2   [8]  00 85 2D 2F 2C 85 39 85
  can0  6B1   [8]  00 06 00 03 19 19 00 F4
  can0  6B2   [8]  01 85 34 2F 2C 85 34 88
